
T1658 000:343 SEGGER J-Link V5.12f Log File (0000ms, 0266ms total)
T1658 000:343 DLL Compiled: May 17 2016 16:03:35 (0000ms, 0266ms total)
T1658 000:343 Logging started @ 2019-10-29 18:50 (0000ms, 0266ms total)
T1658 000:343 JLINK_SetWarnOutHandler(...) (0000ms, 0266ms total)
T1658 000:343 JLINK_OpenEx(...)
Firmware: J-Link ARM V8 compiled Nov 28 2014 13:44:46
Hardware: V8.00
S/N: 268002154
OEM: SEGGER-EDU
Feature(s): FlashBP, GDB  returns O.K. (0264ms, 0530ms total)
T1658 000:607 JLINK_SetErrorOutHandler(...) (0000ms, 0530ms total)
T1658 000:607 JLINK_ExecCommand("ProjectFile = "C:\Users\Alumno\Desktop\myGit\EstacionMeteorologica\ProyectoEstacion\MiniDK-2\uVision\JLinkSettings.ini"", ...)  returns 0x00 (0002ms, 0532ms total)
T1658 000:609 JLINK_ExecCommand("Device = LPC1768", ...)Device "LPC1768" selected.  returns 0x00 (0002ms, 0534ms total)
T1658 000:611 JLINK_ExecCommand("DisableConnectionTimeout", ...)  returns 0x01 (0000ms, 0534ms total)
T1658 000:611 JLINK_GetHardwareVersion()  returns 0x13880 (0000ms, 0534ms total)
T1658 000:611 JLINK_GetDLLVersion()  returns 51206 (0000ms, 0534ms total)
T1658 000:613 JLINK_GetDLLVersion()  returns 51206 (0000ms, 0534ms total)
T1658 000:613 JLINK_GetCompileDateTime() (0000ms, 0534ms total)
T1658 000:613 JLINK_GetFirmwareString(...) (0000ms, 0534ms total)
T1658 000:613 JLINK_GetHardwareVersion()  returns 0x13880 (0000ms, 0534ms total)
T1658 000:615 JLINK_TIF_Select(JLINKARM_TIF_SWD)  returns 0x00 (0002ms, 0536ms total)
T1658 000:617 JLINK_SetSpeed(10000) (0000ms, 0536ms total)
T1658 000:617 JLINK_GetId() >0x108 TIF>Found SWD-DP with ID 0x2BA01477 >0x0D TIF> >0x28 TIF> >0x0D TIF> >0x28 TIF> >0x0D TIF> >0x28 TIF> >0x0D TIF> >0x28 TIF> >0x0D TIF> >0x21 TIF> >0x0D TIF> >0x28 TIF> >0x0D TIF> >0x28 TIF> >0x0D TIF> >0x21 TIF> >0x0D TIF> >0x21 TIF> >0x0D TIF> >0x21 TIF> >0x0D TIF> >0x28 TIF> >0x0D TIF> >0x28 TIF> >0x0D TIF> >0x28 TIF> >0x0D TIF> >0x21 TIF> >0x0D TIF> >0x21 TIF> >0x0D TIF> >0x28 TIF> >0x0D TIF> >0x21 TIF> >0x0D TIF> >0x21 TIF>Found Cortex-M3 r2p0, Little endian.
 -- CPU_ReadMem(4 bytes @ 0xE000EDF0) -- CPU_ReadMem(4 bytes @ 0xE0002000)FPUnit: 6 code (BP) slots and 2 literal slots -- CPU_ReadMem(4 bytes @ 0xE000EDFC) -- CPU_ReadMem(4 bytes @ 0xE0001000) -- CPU_WriteMem(4 bytes @ 0xE0001000) -- CPU_ReadMem(4 bytes @ 0xE000ED88) -- CPU_WriteMem(4 bytes @ 0xE000ED88) -- CPU_ReadMem(4 bytes @ 0xE000ED88) -- CPU_WriteMem(4 bytes @ 0xE000ED88)CoreSight components:ROMTbl 0 @ E00FF000 -- CPU_ReadMem(16 bytes @ 0xE00FF000) -- CPU_ReadMem(16 bytes @ 0xE000EFF0)
 -- CPU_ReadMem(16 bytes @ 0xE000EFE0)ROMTbl 0 [0]: FFF0F000, CID: B105E00D, PID: 002BB000 SCS -- CPU_ReadMem(16 bytes @ 0xE0001FF0) -- CPU_ReadMem(16 bytes @ 0xE0001FE0)ROMTbl 0 [1]: FFF02000, CID: B105E00D, PID: 002BB002 DWT -- CPU_ReadMem(16 bytes @ 0xE0002FF0) -- CPU_ReadMem(16 bytes @ 0xE0002FE0)ROMTbl 0 [2]: FFF03000, CID: B105E00D, PID: 002BB003 FPB -- CPU_ReadMem(16 bytes @ 0xE0000FF0) -- CPU_ReadMem(16 bytes @ 0xE0000FE0)ROMTbl 0 [3]: FFF01000, CID: B105E00D, PID: 002BB001 ITM
 -- CPU_ReadMem(16 bytes @ 0xE00FF010) -- CPU_ReadMem(16 bytes @ 0xE0040FF0) -- CPU_ReadMem(16 bytes @ 0xE0040FE0)ROMTbl 0 [4]: FFF41000, CID: B105900D, PID: 002BB923 TPIU-Lite -- CPU_ReadMem(16 bytes @ 0xE0041FF0) -- CPU_ReadMem(16 bytes @ 0xE0041FE0)ROMTbl 0 [5]: FFF42000, CID: B105900D, PID: 002BB924 ETM-M3 >0x0D TIF> >0x21 TIF>  returns 0x2BA01477 (0041ms, 0577ms total)
T1658 000:658 JLINK_GetDeviceFamily()  returns 3 (0000ms, 0577ms total)
T1658 000:658 JLINK_ReadMem (0xE00FFFF0, 0x0010 Bytes, ...) -- CPU is running -- CPU_ReadMem(16 bytes @ 0xE00FFFF0) - Data: 0D 00 00 00 10 00 00 00 05 00 00 00 B1 00 00 00  returns 0x00 (0001ms, 0578ms total)
T1658 000:659 JLINK_ReadMem (0xE00FFFD0, 0x0020 Bytes, ...) -- CPU is running -- CPU_ReadMem(32 bytes @ 0xE00FFFD0) - Data: 00 00 00 00 00 00 00 00 00 00 00 00 00 00 00 00 ...  returns 0x00 (0000ms, 0578ms total)
T1658 000:659 JLINK_ReadMem (0xE00FF000, 0x0018 Bytes, ...) -- CPU is running -- CPU_ReadMem(24 bytes @ 0xE00FF000) - Data: 03 F0 F0 FF 03 20 F0 FF 03 30 F0 FF 03 10 F0 FF ...  returns 0x00 (0001ms, 0579ms total)
T1658 000:660 JLINK_ReadMemU32(0xE000ED00, 0x0001 Items, ...) -- CPU is running -- CPU_ReadMem(4 bytes @ 0xE000ED00) - Data: 30 C2 2F 41  returns 0x01 (0001ms, 0580ms total)
T1658 000:661 JLINK_SetResetType(JLINKARM_RESET_TYPE_NORMAL)  returns ??? (0000ms, 0580ms total)
T1658 000:661 JLINK_Reset() -- CPU is running -- CPU_WriteMem(4 bytes @ 0xE000EDF0) -- CPU is running -- CPU_WriteMem(4 bytes @ 0xE000EDFC) >0x35 TIF> -- CPU is running -- CPU_WriteMem(4 bytes @ 0xE000ED0C) -- CPU is running -- CPU_ReadMem(4 bytes @ 0xE000EDF0) -- CPU is running -- CPU_ReadMem(4 bytes @ 0xE000EDF0) -- CPU is running -- CPU_WriteMem(4 bytes @ 0xE000EDF0) -- CPU is running -- CPU_WriteMem(4 bytes @ 0xE000EDFC) -- CPU is running -- CPU_ReadMem(4 bytes @ 0xE000EDF0)
 -- CPU_WriteMem(4 bytes @ 0xE000EDFC) -- CPU_WriteMem(4 bytes @ 0xE000EDFC) -- CPU_WriteMem(4 bytes @ 0xE000EDFC) -- CPU_WriteMem(4 bytes @ 0xE000EDFC) -- CPU_WriteMem(4 bytes @ 0xE000EDFC) -- CPU_WriteMem(4 bytes @ 0xE0001050) -- CPU_WriteMem(4 bytes @ 0xE0001054) -- CPU_WriteMem(4 bytes @ 0xE0001058) -- CPU_ReadMem(4 bytes @ 0xE0001000) -- CPU_WriteMem(4 bytes @ 0xE000EDFC) -- CPU_WriteMem(4 bytes @ 0xE0001058) -- CPU_ReadMem(4 bytes @ 0x00000004) -- CPU_ReadMem(4 bytes @ 0xE0002000)
 -- CPU_ReadMem(4 bytes @ 0xE0002008) -- CPU_ReadMem(4 bytes @ 0xE000200C) -- CPU_ReadMem(4 bytes @ 0xE0002010) -- CPU_ReadMem(4 bytes @ 0xE0002014) -- CPU_ReadMem(4 bytes @ 0xE0002018) -- CPU_ReadMem(4 bytes @ 0xE000201C) -- CPU_WriteMem(4 bytes @ 0xE0002000) -- CPU_WriteMem(4 bytes @ 0xE0002008) -- CPU_WriteMem(4 bytes @ 0xE000200C) -- CPU_WriteMem(4 bytes @ 0xE0002010) -- CPU_WriteMem(4 bytes @ 0xE0002014) -- CPU_WriteMem(4 bytes @ 0xE0002018) -- CPU_WriteMem(4 bytes @ 0xE000201C)
 -- CPU_ReadMem(4 bytes @ 0xE0001000) -- CPU_ReadMem(4 bytes @ 0x400FC040) -- CPU_WriteMem(4 bytes @ 0xE0002000) -- CPU_WriteMem(4 bytes @ 0xE0002008) -- CPU_WriteMem(4 bytes @ 0xE000200C) -- CPU_WriteMem(4 bytes @ 0xE0002010) -- CPU_WriteMem(4 bytes @ 0xE0002014) -- CPU_WriteMem(4 bytes @ 0xE0002018) -- CPU_WriteMem(4 bytes @ 0xE000201C) -- CPU_WriteMem(4 bytes @ 0xE0002000) -- CPU_ReadMem(4 bytes @ 0xE000EDFC) -- CPU_ReadMem(4 bytes @ 0xE0001000) (0242ms, 0822ms total)
T1658 000:904 JLINK_ReadReg(R15 (PC))  returns 0x000000E0 (0000ms, 0822ms total)
T1658 000:904 JLINK_ReadReg(XPSR)  returns 0x61000000 (0000ms, 0822ms total)
T1658 000:904 JLINK_Halt()  returns 0x00 (0000ms, 0822ms total)
T1658 000:904 JLINK_IsHalted()  returns TRUE (0000ms, 0822ms total)
T1658 000:904 JLINK_ReadMemU32(0xE000EDF0, 0x0001 Items, ...) -- CPU_ReadMem(4 bytes @ 0xE000EDF0) - Data: 03 00 03 00  returns 0x01 (0000ms, 0822ms total)
T1658 000:904 JLINK_WriteU32(0xE000EDF0, 0xA05F0003) -- CPU_WriteMem(4 bytes @ 0xE000EDF0)  returns 0x00 (0000ms, 0822ms total)
T1658 000:904 JLINK_WriteU32(0xE000EDFC, 0x01000000) -- CPU_WriteMem(4 bytes @ 0xE000EDFC)  returns 0x00 (0001ms, 0823ms total)
T1658 000:905 JLINK_GetHWStatus(...)  returns 0x00 (0001ms, 0824ms total)
T1658 000:906 JLINK_GetNumBPUnits(Type = 0xFFFFFF00)  returns 0x06 (0000ms, 0824ms total)
T1658 000:906 JLINK_GetNumBPUnits(Type = 0xF0)  returns 0x2000 (0000ms, 0824ms total)
T1658 000:906 JLINK_GetNumWPUnits()  returns 0x04 (0000ms, 0824ms total)
T1658 000:906 JLINK_GetSpeed()  returns 0xFA0 (0000ms, 0824ms total)
T1658 000:906 JLINK_ReadMemU32(0xE000E004, 0x0001 Items, ...) -- CPU_ReadMem(4 bytes @ 0xE000E004) - Data: 01 00 00 00  returns 0x01 (0001ms, 0825ms total)
T1658 000:907 JLINK_ReadMemU32(0xE000E004, 0x0001 Items, ...) -- CPU_ReadMem(4 bytes @ 0xE000E004) - Data: 01 00 00 00  returns 0x01 (0000ms, 0825ms total)
T1658 000:907 JLINK_WriteMem(0xE0001000, 0x001C Bytes, ...) - Data: 01 00 00 00 00 00 00 00 00 00 00 00 00 00 00 00 ... -- CPU_WriteMem(28 bytes @ 0xE0001000)  returns 0x1C (0001ms, 0826ms total)
T1658 000:908 JLINK_ReadMem (0xE0001000, 0x001C Bytes, ...) -- CPU_ReadMem(28 bytes @ 0xE0001000) - Data: 01 00 00 40 00 00 00 00 00 00 00 00 00 00 00 00 ...  returns 0x00 (0001ms, 0827ms total)
T1658 000:909 JLINK_ReadReg(R15 (PC))  returns 0x000000E0 (0000ms, 0827ms total)
T1658 000:909 JLINK_ReadReg(XPSR)  returns 0x61000000 (0000ms, 0827ms total)
T1658 000:912 JLINK_WriteU8(0x400FC040, 0x01) -- CPU_WriteMem(1 bytes @ 0x400FC040)  returns 0x00 (0001ms, 0828ms total)
T1658 000:996 JLINK_SetResetType(JLINKARM_RESET_TYPE_NORMAL)  returns ??? (0000ms, 0828ms total)
T1658 000:996 JLINK_Reset() -- CPU_WriteMem(4 bytes @ 0xE000EDF0) -- CPU_WriteMem(4 bytes @ 0xE000EDFC) >0x35 TIF> -- CPU_WriteMem(4 bytes @ 0xE000ED0C) -- CPU_ReadMem(4 bytes @ 0xE000EDF0) -- CPU_ReadMem(4 bytes @ 0xE000EDF0) -- CPU_WriteMem(4 bytes @ 0xE000EDF0) -- CPU_WriteMem(4 bytes @ 0xE000EDFC) -- CPU is running -- CPU_ReadMem(4 bytes @ 0xE000EDF0) -- CPU_WriteMem(4 bytes @ 0xE000EDFC) -- CPU_WriteMem(4 bytes @ 0xE000EDFC) -- CPU_WriteMem(4 bytes @ 0xE000EDFC) -- CPU_WriteMem(4 bytes @ 0xE000EDFC)
 -- CPU_WriteMem(4 bytes @ 0xE000EDFC) -- CPU_WriteMem(4 bytes @ 0xE0001050) -- CPU_WriteMem(4 bytes @ 0xE0001054) -- CPU_WriteMem(4 bytes @ 0xE0001058) -- CPU_ReadMem(4 bytes @ 0xE0001000) -- CPU_WriteMem(4 bytes @ 0xE000EDFC) -- CPU_WriteMem(4 bytes @ 0xE0001058) -- CPU_ReadMem(4 bytes @ 0x00000004) -- CPU_ReadMem(4 bytes @ 0xE0002000) -- CPU_ReadMem(4 bytes @ 0xE0002008) -- CPU_ReadMem(4 bytes @ 0xE000200C) -- CPU_ReadMem(4 bytes @ 0xE0002010) -- CPU_ReadMem(4 bytes @ 0xE0002014)
 -- CPU_ReadMem(4 bytes @ 0xE0002018) -- CPU_ReadMem(4 bytes @ 0xE000201C) -- CPU_WriteMem(4 bytes @ 0xE0002000) -- CPU_WriteMem(4 bytes @ 0xE0002008) -- CPU_WriteMem(4 bytes @ 0xE000200C) -- CPU_WriteMem(4 bytes @ 0xE0002010) -- CPU_WriteMem(4 bytes @ 0xE0002014) -- CPU_WriteMem(4 bytes @ 0xE0002018) -- CPU_WriteMem(4 bytes @ 0xE000201C) -- CPU_ReadMem(4 bytes @ 0xE0001000) -- CPU_ReadMem(4 bytes @ 0x400FC040) -- CPU_WriteMem(4 bytes @ 0xE0002000) -- CPU_WriteMem(4 bytes @ 0xE0002008)
 -- CPU_WriteMem(4 bytes @ 0xE000200C) -- CPU_WriteMem(4 bytes @ 0xE0002010) -- CPU_WriteMem(4 bytes @ 0xE0002014) -- CPU_WriteMem(4 bytes @ 0xE0002018) -- CPU_WriteMem(4 bytes @ 0xE000201C) -- CPU_WriteMem(4 bytes @ 0xE0002000) -- CPU_ReadMem(4 bytes @ 0xE000EDFC) -- CPU_ReadMem(4 bytes @ 0xE0001000) (0248ms, 1076ms total)
T1658 001:244 JLINK_ReadReg(R15 (PC))  returns 0x000000E0 (0000ms, 1076ms total)
T1658 001:244 JLINK_ReadReg(XPSR)  returns 0x61000000 (0000ms, 1076ms total)
T1658 001:245 JLINK_ReadMem (0x000000CC, 0x003C Bytes, ...) -- CPU_ReadMem(128 bytes @ 0x000000C0) -- Updating C cache (128 bytes @ 0x000000C0) -- Read from C cache (60 bytes @ 0x000000CC) - Data: DF F8 0C D0 15 F0 62 F9 00 48 00 47 DD 01 00 00 ...  returns 0x00 (0002ms, 1078ms total)
T1658 001:352 JLINK_ReadMem (0x400FC0C0, 0x0004 Bytes, ...) -- CPU_ReadMem(4 bytes @ 0x400FC0C0) - Data: 00 00 00 00  returns 0x00 (0000ms, 1078ms total)
T1658 001:352 JLINK_ReadMem (0x400FC0C4, 0x0004 Bytes, ...) -- CPU_ReadMem(4 bytes @ 0x400FC0C4) - Data: DE 87 28 04  returns 0x00 (0001ms, 1079ms total)
T1658 001:393 JLINK_ReadMem (0x4002C000, 0x0004 Bytes, ...) -- CPU_ReadMem(4 bytes @ 0x4002C000) - Data: 00 00 00 00  returns 0x00 (0001ms, 1080ms total)
T1658 001:394 JLINK_ReadMem (0x4002C004, 0x0004 Bytes, ...) -- CPU_ReadMem(4 bytes @ 0x4002C004) - Data: 00 00 00 00  returns 0x00 (0000ms, 1080ms total)
T1658 001:394 JLINK_ReadMem (0x4002C008, 0x0004 Bytes, ...) -- CPU_ReadMem(4 bytes @ 0x4002C008) - Data: 00 00 00 00  returns 0x00 (0001ms, 1081ms total)
T1658 001:395 JLINK_ReadMem (0x4002C00C, 0x0004 Bytes, ...) -- CPU_ReadMem(4 bytes @ 0x4002C00C) - Data: 00 00 00 00  returns 0x00 (0000ms, 1081ms total)
T1658 001:395 JLINK_ReadMem (0x4002C010, 0x0004 Bytes, ...) -- CPU_ReadMem(4 bytes @ 0x4002C010) - Data: 00 00 00 00  returns 0x00 (0001ms, 1082ms total)
T1658 001:396 JLINK_ReadMem (0x4002C014, 0x0004 Bytes, ...) -- CPU_ReadMem(4 bytes @ 0x4002C014) - Data: 00 00 00 00  returns 0x00 (0000ms, 1082ms total)
T1658 001:396 JLINK_ReadMem (0x4002C018, 0x0004 Bytes, ...) -- CPU_ReadMem(4 bytes @ 0x4002C018) - Data: 00 00 00 00  returns 0x00 (0001ms, 1083ms total)
T1658 001:397 JLINK_ReadMem (0x4002C01C, 0x0004 Bytes, ...) -- CPU_ReadMem(4 bytes @ 0x4002C01C) - Data: 00 00 00 00  returns 0x00 (0000ms, 1083ms total)
T1658 001:397 JLINK_ReadMem (0x4002C020, 0x0004 Bytes, ...) -- CPU_ReadMem(4 bytes @ 0x4002C020) - Data: 00 00 00 00  returns 0x00 (0001ms, 1084ms total)
T1658 001:398 JLINK_ReadMem (0x4002C024, 0x0004 Bytes, ...) -- CPU_ReadMem(4 bytes @ 0x4002C024) - Data: 00 00 00 00  returns 0x00 (0000ms, 1084ms total)
T1658 001:398 JLINK_ReadMem (0x4002C028, 0x0004 Bytes, ...) -- CPU_ReadMem(4 bytes @ 0x4002C028) - Data: 00 00 00 00  returns 0x00 (0000ms, 1084ms total)
T1658 001:398 JLINK_ReadMem (0x4002C040, 0x0004 Bytes, ...) -- CPU_ReadMem(4 bytes @ 0x4002C040) - Data: 00 00 00 00  returns 0x00 (0001ms, 1085ms total)
T1658 001:399 JLINK_ReadMem (0x4002C044, 0x0004 Bytes, ...) -- CPU_ReadMem(4 bytes @ 0x4002C044) - Data: 00 00 00 00  returns 0x00 (0000ms, 1085ms total)
T1658 001:399 JLINK_ReadMem (0x4002C048, 0x0004 Bytes, ...) -- CPU_ReadMem(4 bytes @ 0x4002C048) - Data: 00 00 00 00  returns 0x00 (0001ms, 1086ms total)
T1658 001:400 JLINK_ReadMem (0x4002C04C, 0x0004 Bytes, ...) -- CPU_ReadMem(4 bytes @ 0x4002C04C) - Data: 00 00 00 00  returns 0x00 (0000ms, 1086ms total)
T1658 001:400 JLINK_ReadMem (0x4002C050, 0x0004 Bytes, ...) -- CPU_ReadMem(4 bytes @ 0x4002C050) - Data: 00 00 00 00  returns 0x00 (0001ms, 1087ms total)
T1658 001:401 JLINK_ReadMem (0x4002C054, 0x0004 Bytes, ...) -- CPU_ReadMem(4 bytes @ 0x4002C054) - Data: 00 00 00 00  returns 0x00 (0000ms, 1087ms total)
T1658 001:401 JLINK_ReadMem (0x4002C058, 0x0004 Bytes, ...) -- CPU_ReadMem(4 bytes @ 0x4002C058) - Data: 00 00 00 00  returns 0x00 (0000ms, 1087ms total)
T1658 001:401 JLINK_ReadMem (0x4002C05C, 0x0004 Bytes, ...) -- CPU_ReadMem(4 bytes @ 0x4002C05C) - Data: 00 00 00 00  returns 0x00 (0001ms, 1088ms total)
T1658 001:402 JLINK_ReadMem (0x4002C060, 0x0004 Bytes, ...) -- CPU_ReadMem(4 bytes @ 0x4002C060) - Data: 00 00 00 00  returns 0x00 (0000ms, 1088ms total)
T1658 001:402 JLINK_ReadMem (0x4002C064, 0x0004 Bytes, ...) -- CPU_ReadMem(4 bytes @ 0x4002C064) - Data: 00 00 00 00  returns 0x00 (0001ms, 1089ms total)
T1658 001:403 JLINK_ReadMem (0x4002C068, 0x0004 Bytes, ...) -- CPU_ReadMem(4 bytes @ 0x4002C068) - Data: 00 00 00 00  returns 0x00 (0000ms, 1089ms total)
T1658 001:403 JLINK_ReadMem (0x4002C06C, 0x0004 Bytes, ...) -- CPU_ReadMem(4 bytes @ 0x4002C06C) - Data: 00 00 00 00  returns 0x00 (0001ms, 1090ms total)
T1658 001:404 JLINK_ReadMem (0x4002C070, 0x0004 Bytes, ...) -- CPU_ReadMem(4 bytes @ 0x4002C070) - Data: 00 00 00 00  returns 0x00 (0000ms, 1090ms total)
T1658 001:404 JLINK_ReadMem (0x4002C074, 0x0004 Bytes, ...) -- CPU_ReadMem(4 bytes @ 0x4002C074) - Data: 00 00 00 00  returns 0x00 (0001ms, 1091ms total)
T1658 001:405 JLINK_ReadMem (0x4002C078, 0x0004 Bytes, ...) -- CPU_ReadMem(4 bytes @ 0x4002C078) - Data: 00 00 00 00  returns 0x00 (0000ms, 1091ms total)
T1658 001:453 JLINK_ReadMem (0x40090000, 0x0004 Bytes, ...) -- CPU_ReadMem(4 bytes @ 0x40090000) - Data: AA AA AA AA  returns 0x01 (0001ms, 1092ms total)
T1658 001:454 JLINK_ReadMem (0x40090004, 0x0004 Bytes, ...) -- CPU_ReadMem(4 bytes @ 0x40090004) - Data: AA AA AA AA  returns 0x01 (0000ms, 1092ms total)
T1658 001:454 JLINK_ReadMem (0x40090008, 0x0004 Bytes, ...) -- CPU_ReadMem(4 bytes @ 0x40090008) - Data: AA AA AA AA  returns 0x01 (0001ms, 1093ms total)
T1658 001:455 JLINK_ReadMem (0x4009000C, 0x0004 Bytes, ...) -- CPU_ReadMem(4 bytes @ 0x4009000C) - Data: AA AA AA AA  returns 0x01 (0000ms, 1093ms total)
T1658 001:455 JLINK_ReadMem (0x40090010, 0x0004 Bytes, ...) -- CPU_ReadMem(4 bytes @ 0x40090010) - Data: AA AA AA AA  returns 0x01 (0001ms, 1094ms total)
T1658 001:456 JLINK_ReadMem (0x40090014, 0x0004 Bytes, ...) -- CPU_ReadMem(4 bytes @ 0x40090014) - Data: AA AA AA AA  returns 0x01 (0000ms, 1094ms total)
T1658 001:456 JLINK_ReadMem (0x40090018, 0x0004 Bytes, ...) -- CPU_ReadMem(4 bytes @ 0x40090018) - Data: AA AA AA AA  returns 0x01 (0001ms, 1095ms total)
T1658 001:457 JLINK_ReadMem (0x4009001C, 0x0004 Bytes, ...) -- CPU_ReadMem(4 bytes @ 0x4009001C) - Data: AA AA AA AA  returns 0x01 (0001ms, 1096ms total)
T1658 001:458 JLINK_ReadMem (0x40090020, 0x0004 Bytes, ...) -- CPU_ReadMem(4 bytes @ 0x40090020) - Data: AA AA AA AA  returns 0x01 (0000ms, 1096ms total)
T1658 001:458 JLINK_ReadMem (0x40090024, 0x0004 Bytes, ...) -- CPU_ReadMem(4 bytes @ 0x40090024) - Data: AA AA AA AA  returns 0x01 (0001ms, 1097ms total)
T1658 001:459 JLINK_ReadMem (0x40090028, 0x0004 Bytes, ...) -- CPU_ReadMem(4 bytes @ 0x40090028) - Data: AA AA AA AA  returns 0x01 (0000ms, 1097ms total)
T1658 001:459 JLINK_ReadMem (0x4009002C, 0x0004 Bytes, ...) -- CPU_ReadMem(4 bytes @ 0x4009002C) - Data: AA AA AA AA  returns 0x01 (0001ms, 1098ms total)
T1658 001:460 JLINK_ReadMem (0x40090030, 0x0004 Bytes, ...) -- CPU_ReadMem(4 bytes @ 0x40090030) - Data: AA AA AA AA  returns 0x01 (0000ms, 1098ms total)
T1658 001:460 JLINK_ReadMem (0x40090034, 0x0004 Bytes, ...) -- CPU_ReadMem(4 bytes @ 0x40090034) - Data: AA AA AA AA  returns 0x01 (0001ms, 1099ms total)
T1658 001:461 JLINK_ReadMem (0x40090038, 0x0004 Bytes, ...) -- CPU_ReadMem(4 bytes @ 0x40090038) - Data: AA AA AA AA  returns 0x01 (0001ms, 1100ms total)
T1658 001:462 JLINK_ReadMem (0x4009003C, 0x0004 Bytes, ...) -- CPU_ReadMem(4 bytes @ 0x4009003C) - Data: AA AA AA AA  returns 0x01 (0000ms, 1100ms total)
T1658 001:462 JLINK_ReadMem (0x40090070, 0x0004 Bytes, ...) -- CPU_ReadMem(4 bytes @ 0x40090070) - Data: AA AA AA AA  returns 0x01 (0001ms, 1101ms total)
T1658 001:500 JLINK_ReadMem (0x4009000C, 0x0004 Bytes, ...) -- CPU_ReadMem(4 bytes @ 0x4009000C) - Data: AA AA AA AA  returns 0x01 (0001ms, 1102ms total)
T1658 001:502 JLINK_ReadMem (0x40034000, 0x0004 Bytes, ...) -- CPU_ReadMem(4 bytes @ 0x40034000) - Data: AA AA AA AA  returns 0x01 (0001ms, 1103ms total)
T1658 001:503 JLINK_ReadMem (0x40034004, 0x0004 Bytes, ...) -- CPU_ReadMem(4 bytes @ 0x40034004) - Data: AA AA AA AA  returns 0x01 (0000ms, 1103ms total)
T1658 001:503 JLINK_ReadMem (0x40034010, 0x0004 Bytes, ...) -- CPU_ReadMem(4 bytes @ 0x40034010) - Data: AA AA AA AA  returns 0x01 (0001ms, 1104ms total)
T1658 001:504 JLINK_ReadMem (0x40034014, 0x0004 Bytes, ...) -- CPU_ReadMem(4 bytes @ 0x40034014) - Data: AA AA AA AA  returns 0x01 (0000ms, 1104ms total)
T1658 001:504 JLINK_ReadMem (0x40034018, 0x0004 Bytes, ...) -- CPU_ReadMem(4 bytes @ 0x40034018) - Data: AA AA AA AA  returns 0x01 (0001ms, 1105ms total)
T1658 001:505 JLINK_ReadMem (0x4003401C, 0x0004 Bytes, ...) -- CPU_ReadMem(4 bytes @ 0x4003401C) - Data: AA AA AA AA  returns 0x01 (0000ms, 1105ms total)
T1658 001:505 JLINK_ReadMem (0x40034020, 0x0004 Bytes, ...) -- CPU_ReadMem(4 bytes @ 0x40034020) - Data: AA AA AA AA  returns 0x01 (0001ms, 1106ms total)
T1658 001:506 JLINK_ReadMem (0x40034024, 0x0004 Bytes, ...) -- CPU_ReadMem(4 bytes @ 0x40034024) - Data: AA AA AA AA  returns 0x01 (0000ms, 1106ms total)
T1658 001:506 JLINK_ReadMem (0x40034028, 0x0004 Bytes, ...) -- CPU_ReadMem(4 bytes @ 0x40034028) - Data: AA AA AA AA  returns 0x01 (0001ms, 1107ms total)
T1658 001:507 JLINK_ReadMem (0x4003402C, 0x0004 Bytes, ...) -- CPU_ReadMem(4 bytes @ 0x4003402C) - Data: AA AA AA AA  returns 0x01 (0000ms, 1107ms total)
T1658 001:507 JLINK_ReadMem (0x40034030, 0x0004 Bytes, ...) -- CPU_ReadMem(4 bytes @ 0x40034030) - Data: AA AA AA AA  returns 0x01 (0001ms, 1108ms total)
T1658 001:508 JLINK_ReadMem (0x4003400C, 0x0004 Bytes, ...) -- CPU_ReadMem(4 bytes @ 0x4003400C) - Data: AA AA AA AA  returns 0x01 (0001ms, 1109ms total)
T1658 001:509 JLINK_ReadMem (0x400FC104, 0x0004 Bytes, ...) -- CPU_ReadMem(4 bytes @ 0x400FC104) - Data: 00 00 00 00  returns 0x00 (0000ms, 1109ms total)
T1658 001:509 JLINK_ReadMem (0x400FC088, 0x0004 Bytes, ...) -- CPU_ReadMem(4 bytes @ 0x400FC088) - Data: 00 00 00 00  returns 0x00 (0000ms, 1109ms total)
T1658 001:509 JLINK_ReadMem (0x400FC10C, 0x0004 Bytes, ...) -- CPU_ReadMem(4 bytes @ 0x400FC10C) - Data: 00 00 00 00  returns 0x00 (0001ms, 1110ms total)
T1658 001:510 JLINK_ReadMem (0x400FC088, 0x0004 Bytes, ...) -- CPU_ReadMem(4 bytes @ 0x400FC088) - Data: 00 00 00 00  returns 0x00 (0000ms, 1110ms total)
T1658 001:510 JLINK_ReadMem (0x400FC1A8, 0x0004 Bytes, ...) -- CPU_ReadMem(4 bytes @ 0x400FC1A8) - Data: 00 00 0C 00  returns 0x00 (0001ms, 1111ms total)
T1658 001:511 JLINK_ReadMem (0x400FC104, 0x0004 Bytes, ...) -- CPU_ReadMem(4 bytes @ 0x400FC104) - Data: 00 00 00 00  returns 0x00 (0000ms, 1111ms total)
T1658 001:511 JLINK_ReadMem (0x400FC1AC, 0x0004 Bytes, ...) -- CPU_ReadMem(4 bytes @ 0x400FC1AC) - Data: 00 00 00 00  returns 0x00 (0000ms, 1111ms total)
T1658 001:536 JLINK_ReadMem (0x40034000, 0x0004 Bytes, ...) -- CPU_ReadMem(4 bytes @ 0x40034000) - Data: AA AA AA AA  returns 0x01 (0000ms, 1111ms total)
T1658 001:536 JLINK_WriteMem(0x40034000, 0x0004 Bytes, ...) - Data: AA AA AA AA -- CPU_WriteMem(4 bytes @ 0x40034000)  returns 0x04 (0001ms, 1112ms total)
T1658 001:537 JLINK_ReadMem (0x400FC0C0, 0x0004 Bytes, ...) -- CPU_ReadMem(4 bytes @ 0x400FC0C0) - Data: 00 00 00 00  returns 0x00 (0000ms, 1112ms total)
T1658 001:537 JLINK_ReadMem (0x400FC0C4, 0x0004 Bytes, ...) -- CPU_ReadMem(4 bytes @ 0x400FC0C4) - Data: DE 87 28 04  returns 0x00 (0001ms, 1113ms total)
T1658 001:538 JLINK_ReadMem (0x4002C000, 0x0004 Bytes, ...) -- CPU_ReadMem(4 bytes @ 0x4002C000) - Data: 00 00 00 00  returns 0x00 (0000ms, 1113ms total)
T1658 001:538 JLINK_ReadMem (0x4002C004, 0x0004 Bytes, ...) -- CPU_ReadMem(4 bytes @ 0x4002C004) - Data: 00 00 00 00  returns 0x00 (0000ms, 1113ms total)
T1658 001:538 JLINK_ReadMem (0x4002C008, 0x0004 Bytes, ...) -- CPU_ReadMem(4 bytes @ 0x4002C008) - Data: 00 00 00 00  returns 0x00 (0001ms, 1114ms total)
T1658 001:539 JLINK_ReadMem (0x4002C00C, 0x0004 Bytes, ...) -- CPU_ReadMem(4 bytes @ 0x4002C00C) - Data: 00 00 00 00  returns 0x00 (0000ms, 1114ms total)
T1658 001:539 JLINK_ReadMem (0x4002C010, 0x0004 Bytes, ...) -- CPU_ReadMem(4 bytes @ 0x4002C010) - Data: 00 00 00 00  returns 0x00 (0001ms, 1115ms total)
T1658 001:540 JLINK_ReadMem (0x4002C014, 0x0004 Bytes, ...) -- CPU_ReadMem(4 bytes @ 0x4002C014) - Data: 00 00 00 00  returns 0x00 (0000ms, 1115ms total)
T1658 001:540 JLINK_ReadMem (0x4002C018, 0x0004 Bytes, ...) -- CPU_ReadMem(4 bytes @ 0x4002C018) - Data: 00 00 00 00  returns 0x00 (0001ms, 1116ms total)
T1658 001:541 JLINK_ReadMem (0x4002C01C, 0x0004 Bytes, ...) -- CPU_ReadMem(4 bytes @ 0x4002C01C) - Data: 00 00 00 00  returns 0x00 (0000ms, 1116ms total)
T1658 001:541 JLINK_ReadMem (0x4002C020, 0x0004 Bytes, ...) -- CPU_ReadMem(4 bytes @ 0x4002C020) - Data: 00 00 00 00  returns 0x00 (0000ms, 1116ms total)
T1658 001:541 JLINK_ReadMem (0x4002C024, 0x0004 Bytes, ...) -- CPU_ReadMem(4 bytes @ 0x4002C024) - Data: 00 00 00 00  returns 0x00 (0001ms, 1117ms total)
T1658 001:542 JLINK_ReadMem (0x4002C028, 0x0004 Bytes, ...) -- CPU_ReadMem(4 bytes @ 0x4002C028) - Data: 00 00 00 00  returns 0x00 (0000ms, 1117ms total)
T1658 001:542 JLINK_ReadMem (0x4002C040, 0x0004 Bytes, ...) -- CPU_ReadMem(4 bytes @ 0x4002C040) - Data: 00 00 00 00  returns 0x00 (0001ms, 1118ms total)
T1658 001:543 JLINK_ReadMem (0x4002C044, 0x0004 Bytes, ...) -- CPU_ReadMem(4 bytes @ 0x4002C044) - Data: 00 00 00 00  returns 0x00 (0000ms, 1118ms total)
T1658 001:543 JLINK_ReadMem (0x4002C048, 0x0004 Bytes, ...) -- CPU_ReadMem(4 bytes @ 0x4002C048) - Data: 00 00 00 00  returns 0x00 (0000ms, 1118ms total)
T1658 001:543 JLINK_ReadMem (0x4002C04C, 0x0004 Bytes, ...) -- CPU_ReadMem(4 bytes @ 0x4002C04C) - Data: 00 00 00 00  returns 0x00 (0001ms, 1119ms total)
T1658 001:544 JLINK_ReadMem (0x4002C050, 0x0004 Bytes, ...) -- CPU_ReadMem(4 bytes @ 0x4002C050) - Data: 00 00 00 00  returns 0x00 (0000ms, 1119ms total)
T1658 001:544 JLINK_ReadMem (0x4002C054, 0x0004 Bytes, ...) -- CPU_ReadMem(4 bytes @ 0x4002C054) - Data: 00 00 00 00  returns 0x00 (0001ms, 1120ms total)
T1658 001:545 JLINK_ReadMem (0x4002C058, 0x0004 Bytes, ...) -- CPU_ReadMem(4 bytes @ 0x4002C058) - Data: 00 00 00 00  returns 0x00 (0000ms, 1120ms total)
T1658 001:545 JLINK_ReadMem (0x4002C05C, 0x0004 Bytes, ...) -- CPU_ReadMem(4 bytes @ 0x4002C05C) - Data: 00 00 00 00  returns 0x00 (0001ms, 1121ms total)
T1658 001:546 JLINK_ReadMem (0x4002C060, 0x0004 Bytes, ...) -- CPU_ReadMem(4 bytes @ 0x4002C060) - Data: 00 00 00 00  returns 0x00 (0000ms, 1121ms total)
T1658 001:546 JLINK_ReadMem (0x4002C064, 0x0004 Bytes, ...) -- CPU_ReadMem(4 bytes @ 0x4002C064) - Data: 00 00 00 00  returns 0x00 (0000ms, 1121ms total)
T1658 001:546 JLINK_ReadMem (0x4002C068, 0x0004 Bytes, ...) -- CPU_ReadMem(4 bytes @ 0x4002C068) - Data: 00 00 00 00  returns 0x00 (0001ms, 1122ms total)
T1658 001:547 JLINK_ReadMem (0x4002C06C, 0x0004 Bytes, ...) -- CPU_ReadMem(4 bytes @ 0x4002C06C) - Data: 00 00 00 00  returns 0x00 (0000ms, 1122ms total)
T1658 001:547 JLINK_ReadMem (0x4002C070, 0x0004 Bytes, ...) -- CPU_ReadMem(4 bytes @ 0x4002C070) - Data: 00 00 00 00  returns 0x00 (0001ms, 1123ms total)
T1658 001:548 JLINK_ReadMem (0x4002C074, 0x0004 Bytes, ...) -- CPU_ReadMem(4 bytes @ 0x4002C074) - Data: 00 00 00 00  returns 0x00 (0000ms, 1123ms total)
T1658 001:548 JLINK_ReadMem (0x4002C078, 0x0004 Bytes, ...) -- CPU_ReadMem(4 bytes @ 0x4002C078) - Data: 00 00 00 00  returns 0x00 (0001ms, 1124ms total)
T1658 001:549 JLINK_ReadMem (0x40090000, 0x0004 Bytes, ...) -- CPU_ReadMem(4 bytes @ 0x40090000) - Data: AA AA AA AA  returns 0x01 (0001ms, 1125ms total)
T1658 001:550 JLINK_ReadMem (0x40090004, 0x0004 Bytes, ...) -- CPU_ReadMem(4 bytes @ 0x40090004) - Data: AA AA AA AA  returns 0x01 (0000ms, 1125ms total)
T1658 001:550 JLINK_ReadMem (0x40090008, 0x0004 Bytes, ...) -- CPU_ReadMem(4 bytes @ 0x40090008) - Data: AA AA AA AA  returns 0x01 (0001ms, 1126ms total)
T1658 001:551 JLINK_ReadMem (0x4009000C, 0x0004 Bytes, ...) -- CPU_ReadMem(4 bytes @ 0x4009000C) - Data: AA AA AA AA  returns 0x01 (0001ms, 1127ms total)
T1658 001:552 JLINK_ReadMem (0x40090010, 0x0004 Bytes, ...) -- CPU_ReadMem(4 bytes @ 0x40090010) - Data: AA AA AA AA  returns 0x01 (0000ms, 1127ms total)
T1658 001:552 JLINK_ReadMem (0x40090014, 0x0004 Bytes, ...) -- CPU_ReadMem(4 bytes @ 0x40090014) - Data: AA AA AA AA  returns 0x01 (0001ms, 1128ms total)
T1658 001:553 JLINK_ReadMem (0x40090018, 0x0004 Bytes, ...) -- CPU_ReadMem(4 bytes @ 0x40090018) - Data: AA AA AA AA  returns 0x01 (0000ms, 1128ms total)
T1658 001:553 JLINK_ReadMem (0x4009001C, 0x0004 Bytes, ...) -- CPU_ReadMem(4 bytes @ 0x4009001C) - Data: AA AA AA AA  returns 0x01 (0001ms, 1129ms total)
T1658 001:554 JLINK_ReadMem (0x40090020, 0x0004 Bytes, ...) -- CPU_ReadMem(4 bytes @ 0x40090020) - Data: AA AA AA AA  returns 0x01 (0001ms, 1130ms total)
T1658 001:555 JLINK_ReadMem (0x40090024, 0x0004 Bytes, ...) -- CPU_ReadMem(4 bytes @ 0x40090024) - Data: AA AA AA AA  returns 0x01 (0000ms, 1130ms total)
T1658 001:555 JLINK_ReadMem (0x40090028, 0x0004 Bytes, ...) -- CPU_ReadMem(4 bytes @ 0x40090028) - Data: AA AA AA AA  returns 0x01 (0001ms, 1131ms total)
T1658 001:556 JLINK_ReadMem (0x4009002C, 0x0004 Bytes, ...) -- CPU_ReadMem(4 bytes @ 0x4009002C) - Data: AA AA AA AA  returns 0x01 (0001ms, 1132ms total)
T1658 001:557 JLINK_ReadMem (0x40090030, 0x0004 Bytes, ...) -- CPU_ReadMem(4 bytes @ 0x40090030) - Data: AA AA AA AA  returns 0x01 (0000ms, 1132ms total)
T1658 001:557 JLINK_ReadMem (0x40090034, 0x0004 Bytes, ...) -- CPU_ReadMem(4 bytes @ 0x40090034) - Data: AA AA AA AA  returns 0x01 (0001ms, 1133ms total)
T1658 001:558 JLINK_ReadMem (0x40090038, 0x0004 Bytes, ...) -- CPU_ReadMem(4 bytes @ 0x40090038) - Data: AA AA AA AA  returns 0x01 (0000ms, 1133ms total)
T1658 001:558 JLINK_ReadMem (0x4009003C, 0x0004 Bytes, ...) -- CPU_ReadMem(4 bytes @ 0x4009003C) - Data: AA AA AA AA  returns 0x01 (0001ms, 1134ms total)
T1658 001:559 JLINK_ReadMem (0x40090070, 0x0004 Bytes, ...) -- CPU_ReadMem(4 bytes @ 0x40090070) - Data: AA AA AA AA  returns 0x01 (0001ms, 1135ms total)
T1658 001:560 JLINK_ReadMem (0x40034000, 0x0004 Bytes, ...) -- CPU_ReadMem(4 bytes @ 0x40034000) - Data: AA AA AA AA  returns 0x01 (0000ms, 1135ms total)
T1658 001:560 JLINK_ReadMem (0x40034004, 0x0004 Bytes, ...) -- CPU_ReadMem(4 bytes @ 0x40034004) - Data: AA AA AA AA  returns 0x01 (0001ms, 1136ms total)
T1658 001:561 JLINK_ReadMem (0x40034010, 0x0004 Bytes, ...) -- CPU_ReadMem(4 bytes @ 0x40034010) - Data: AA AA AA AA  returns 0x01 (0000ms, 1136ms total)
T1658 001:561 JLINK_ReadMem (0x40034014, 0x0004 Bytes, ...) -- CPU_ReadMem(4 bytes @ 0x40034014) - Data: AA AA AA AA  returns 0x01 (0001ms, 1137ms total)
T1658 001:562 JLINK_ReadMem (0x40034018, 0x0004 Bytes, ...) -- CPU_ReadMem(4 bytes @ 0x40034018) - Data: AA AA AA AA  returns 0x01 (0001ms, 1138ms total)
T1658 001:563 JLINK_ReadMem (0x4003401C, 0x0004 Bytes, ...) -- CPU_ReadMem(4 bytes @ 0x4003401C) - Data: AA AA AA AA  returns 0x01 (0000ms, 1138ms total)
T1658 001:563 JLINK_ReadMem (0x40034020, 0x0004 Bytes, ...) -- CPU_ReadMem(4 bytes @ 0x40034020) - Data: AA AA AA AA  returns 0x01 (0001ms, 1139ms total)
T1658 001:564 JLINK_ReadMem (0x40034024, 0x0004 Bytes, ...) -- CPU_ReadMem(4 bytes @ 0x40034024) - Data: AA AA AA AA  returns 0x01 (0000ms, 1139ms total)
T1658 001:564 JLINK_ReadMem (0x40034028, 0x0004 Bytes, ...) -- CPU_ReadMem(4 bytes @ 0x40034028) - Data: AA AA AA AA  returns 0x01 (0001ms, 1140ms total)
T1658 001:565 JLINK_ReadMem (0x4003402C, 0x0004 Bytes, ...) -- CPU_ReadMem(4 bytes @ 0x4003402C) - Data: AA AA AA AA  returns 0x01 (0001ms, 1141ms total)
T1658 001:566 JLINK_ReadMem (0x40034030, 0x0004 Bytes, ...) -- CPU_ReadMem(4 bytes @ 0x40034030) - Data: AA AA AA AA  returns 0x01 (0000ms, 1141ms total)
T1658 001:566 JLINK_ReadMem (0x4003400C, 0x0004 Bytes, ...) -- CPU_ReadMem(4 bytes @ 0x4003400C) - Data: AA AA AA AA  returns 0x01 (0001ms, 1142ms total)
T1658 001:567 JLINK_ReadMem (0x400FC104, 0x0004 Bytes, ...) -- CPU_ReadMem(4 bytes @ 0x400FC104) - Data: 00 00 00 00  returns 0x00 (0000ms, 1142ms total)
T1658 001:567 JLINK_ReadMem (0x400FC088, 0x0004 Bytes, ...) -- CPU_ReadMem(4 bytes @ 0x400FC088) - Data: 00 00 00 00  returns 0x00 (0001ms, 1143ms total)
T1658 001:568 JLINK_ReadMem (0x400FC10C, 0x0004 Bytes, ...) -- CPU_ReadMem(4 bytes @ 0x400FC10C) - Data: 00 00 00 00  returns 0x00 (0001ms, 1144ms total)
T1658 002:318 JLINK_ReadMem (0x4000802C, 0x0004 Bytes, ...) -- CPU_ReadMem(4 bytes @ 0x4000802C) - Data: 00 00 00 00  returns 0x00 (0001ms, 1145ms total)
T1658 002:319 JLINK_ReadMem (0x4000802C, 0x0004 Bytes, ...) -- CPU_ReadMem(4 bytes @ 0x4000802C) - Data: 00 00 00 00  returns 0x00 (0000ms, 1145ms total)
T1658 002:319 JLINK_ReadMem (0x4000802C, 0x0004 Bytes, ...) -- CPU_ReadMem(4 bytes @ 0x4000802C) - Data: 00 00 00 00  returns 0x00 (0001ms, 1146ms total)
T1658 002:320 JLINK_ReadMem (0x2007C224, 0x0001 Bytes, ...) -- CPU_ReadMem(64 bytes @ 0x2007C200) -- Updating C cache (64 bytes @ 0x2007C200) -- Read from C cache (1 bytes @ 0x2007C224) - Data: 00  returns 0x00 (0001ms, 1147ms total)
T1658 002:323 JLINK_ReadMem (0x4000802C, 0x0004 Bytes, ...) -- CPU_ReadMem(4 bytes @ 0x4000802C) - Data: 00 00 00 00  returns 0x00 (0000ms, 1147ms total)
T1658 002:324 JLINK_ReadMem (0x4000802C, 0x0004 Bytes, ...) -- CPU_ReadMem(4 bytes @ 0x4000802C) - Data: 00 00 00 00  returns 0x00 (0000ms, 1147ms total)
T1658 002:324 JLINK_ReadMem (0x4000802C, 0x0004 Bytes, ...) -- CPU_ReadMem(4 bytes @ 0x4000802C) - Data: 00 00 00 00  returns 0x00 (0001ms, 1148ms total)
T1658 002:326 JLINK_ReadMem (0x10000040, 0x0004 Bytes, ...) -- CPU_ReadMem(64 bytes @ 0x10000040) -- Updating C cache (64 bytes @ 0x10000040) -- Read from C cache (4 bytes @ 0x10000040) - Data: 5B 2D C2 3E  returns 0x00 (0001ms, 1149ms total)
T1658 002:339 JLINK_ReadMem (0x400FC0C0, 0x0004 Bytes, ...) -- CPU_ReadMem(4 bytes @ 0x400FC0C0) - Data: 00 00 00 00  returns 0x00 (0001ms, 1150ms total)
T1658 002:340 JLINK_ReadMem (0x400FC0C4, 0x0004 Bytes, ...) -- CPU_ReadMem(4 bytes @ 0x400FC0C4) - Data: DE 87 28 04  returns 0x00 (0000ms, 1150ms total)
T1658 002:340 JLINK_ReadMem (0x4002C000, 0x0004 Bytes, ...) -- CPU_ReadMem(4 bytes @ 0x4002C000) - Data: 00 00 00 00  returns 0x00 (0001ms, 1151ms total)
T1658 002:341 JLINK_ReadMem (0x4002C004, 0x0004 Bytes, ...) -- CPU_ReadMem(4 bytes @ 0x4002C004) - Data: 00 00 00 00  returns 0x00 (0000ms, 1151ms total)
T1658 002:341 JLINK_ReadMem (0x4002C008, 0x0004 Bytes, ...) -- CPU_ReadMem(4 bytes @ 0x4002C008) - Data: 00 00 00 00  returns 0x00 (0001ms, 1152ms total)
T1658 002:342 JLINK_ReadMem (0x4002C00C, 0x0004 Bytes, ...) -- CPU_ReadMem(4 bytes @ 0x4002C00C) - Data: 00 00 00 00  returns 0x00 (0000ms, 1152ms total)
T1658 002:342 JLINK_ReadMem (0x4002C010, 0x0004 Bytes, ...) -- CPU_ReadMem(4 bytes @ 0x4002C010) - Data: 00 00 00 00  returns 0x00 (0001ms, 1153ms total)
T1658 002:343 JLINK_ReadMem (0x4002C014, 0x0004 Bytes, ...) -- CPU_ReadMem(4 bytes @ 0x4002C014) - Data: 00 00 00 00  returns 0x00 (0000ms, 1153ms total)
T1658 002:343 JLINK_ReadMem (0x4002C018, 0x0004 Bytes, ...) -- CPU_ReadMem(4 bytes @ 0x4002C018) - Data: 00 00 00 00  returns 0x00 (0001ms, 1154ms total)
T1658 002:344 JLINK_ReadMem (0x4002C01C, 0x0004 Bytes, ...) -- CPU_ReadMem(4 bytes @ 0x4002C01C) - Data: 00 00 00 00  returns 0x00 (0001ms, 1155ms total)
T1658 002:345 JLINK_ReadMem (0x4002C020, 0x0004 Bytes, ...) -- CPU_ReadMem(4 bytes @ 0x4002C020) - Data: 00 00 00 00  returns 0x00 (0000ms, 1155ms total)
T1658 002:345 JLINK_ReadMem (0x4002C024, 0x0004 Bytes, ...) -- CPU_ReadMem(4 bytes @ 0x4002C024) - Data: 00 00 00 00  returns 0x00 (0001ms, 1156ms total)
T1658 002:346 JLINK_ReadMem (0x4002C028, 0x0004 Bytes, ...) -- CPU_ReadMem(4 bytes @ 0x4002C028) - Data: 00 00 00 00  returns 0x00 (0000ms, 1156ms total)
T1658 002:346 JLINK_ReadMem (0x4002C040, 0x0004 Bytes, ...) -- CPU_ReadMem(4 bytes @ 0x4002C040) - Data: 00 00 00 00  returns 0x00 (0001ms, 1157ms total)
T1658 002:347 JLINK_ReadMem (0x4002C044, 0x0004 Bytes, ...) -- CPU_ReadMem(4 bytes @ 0x4002C044) - Data: 00 00 00 00  returns 0x00 (0000ms, 1157ms total)
T1658 002:347 JLINK_ReadMem (0x4002C048, 0x0004 Bytes, ...) -- CPU_ReadMem(4 bytes @ 0x4002C048) - Data: 00 00 00 00  returns 0x00 (0002ms, 1159ms total)
T1658 002:349 JLINK_ReadMem (0x4002C04C, 0x0004 Bytes, ...) -- CPU_ReadMem(4 bytes @ 0x4002C04C) - Data: 00 00 00 00  returns 0x00 (0000ms, 1159ms total)
T1658 002:349 JLINK_ReadMem (0x4002C050, 0x0004 Bytes, ...) -- CPU_ReadMem(4 bytes @ 0x4002C050) - Data: 00 00 00 00  returns 0x00 (0001ms, 1160ms total)
T1658 002:350 JLINK_ReadMem (0x4002C054, 0x0004 Bytes, ...) -- CPU_ReadMem(4 bytes @ 0x4002C054) - Data: 00 00 00 00  returns 0x00 (0000ms, 1160ms total)
T1658 002:350 JLINK_ReadMem (0x4002C058, 0x0004 Bytes, ...) -- CPU_ReadMem(4 bytes @ 0x4002C058) - Data: 00 00 00 00  returns 0x00 (0001ms, 1161ms total)
T1658 002:351 JLINK_ReadMem (0x4002C05C, 0x0004 Bytes, ...) -- CPU_ReadMem(4 bytes @ 0x4002C05C) - Data: 00 00 00 00  returns 0x00 (0000ms, 1161ms total)
T1658 002:351 JLINK_ReadMem (0x4002C060, 0x0004 Bytes, ...) -- CPU_ReadMem(4 bytes @ 0x4002C060) - Data: 00 00 00 00  returns 0x00 (0001ms, 1162ms total)
T1658 002:352 JLINK_ReadMem (0x4002C064, 0x0004 Bytes, ...) -- CPU_ReadMem(4 bytes @ 0x4002C064) - Data: 00 00 00 00  returns 0x00 (0000ms, 1162ms total)
T1658 002:352 JLINK_ReadMem (0x4002C068, 0x0004 Bytes, ...) -- CPU_ReadMem(4 bytes @ 0x4002C068) - Data: 00 00 00 00  returns 0x00 (0001ms, 1163ms total)
T1658 002:353 JLINK_ReadMem (0x4002C06C, 0x0004 Bytes, ...) -- CPU_ReadMem(4 bytes @ 0x4002C06C) - Data: 00 00 00 00  returns 0x00 (0000ms, 1163ms total)
T1658 002:354 JLINK_ReadMem (0x4002C070, 0x0004 Bytes, ...) -- CPU_ReadMem(4 bytes @ 0x4002C070) - Data: 00 00 00 00  returns 0x00 (0000ms, 1164ms total)
T1658 002:354 JLINK_ReadMem (0x4002C074, 0x0004 Bytes, ...) -- CPU_ReadMem(4 bytes @ 0x4002C074) - Data: 00 00 00 00  returns 0x00 (0001ms, 1165ms total)
T1658 002:355 JLINK_ReadMem (0x4002C078, 0x0004 Bytes, ...) -- CPU_ReadMem(4 bytes @ 0x4002C078) - Data: 00 00 00 00  returns 0x00 (0000ms, 1165ms total)
T1658 002:355 JLINK_ReadMem (0x40090000, 0x0004 Bytes, ...) -- CPU_ReadMem(4 bytes @ 0x40090000) - Data: AA AA AA AA  returns 0x01 (0001ms, 1166ms total)
T1658 002:356 JLINK_ReadMem (0x40090004, 0x0004 Bytes, ...) -- CPU_ReadMem(4 bytes @ 0x40090004) - Data: AA AA AA AA  returns 0x01 (0000ms, 1166ms total)
T1658 002:356 JLINK_ReadMem (0x40090008, 0x0004 Bytes, ...) -- CPU_ReadMem(4 bytes @ 0x40090008) - Data: AA AA AA AA  returns 0x01 (0001ms, 1167ms total)
T1658 002:357 JLINK_ReadMem (0x4009000C, 0x0004 Bytes, ...) -- CPU_ReadMem(4 bytes @ 0x4009000C) - Data: AA AA AA AA  returns 0x01 (0001ms, 1168ms total)
T1658 002:358 JLINK_ReadMem (0x40090010, 0x0004 Bytes, ...) -- CPU_ReadMem(4 bytes @ 0x40090010) - Data: AA AA AA AA  returns 0x01 (0000ms, 1168ms total)
T1658 002:358 JLINK_ReadMem (0x40090014, 0x0004 Bytes, ...) -- CPU_ReadMem(4 bytes @ 0x40090014) - Data: AA AA AA AA  returns 0x01 (0001ms, 1169ms total)
T1658 002:359 JLINK_ReadMem (0x40090018, 0x0004 Bytes, ...) -- CPU_ReadMem(4 bytes @ 0x40090018) - Data: AA AA AA AA  returns 0x01 (0000ms, 1169ms total)
T1658 002:359 JLINK_ReadMem (0x4009001C, 0x0004 Bytes, ...) -- CPU_ReadMem(4 bytes @ 0x4009001C) - Data: AA AA AA AA  returns 0x01 (0001ms, 1170ms total)
T1658 002:360 JLINK_ReadMem (0x40090020, 0x0004 Bytes, ...) -- CPU_ReadMem(4 bytes @ 0x40090020) - Data: AA AA AA AA  returns 0x01 (0001ms, 1171ms total)
T1658 002:361 JLINK_ReadMem (0x40090024, 0x0004 Bytes, ...) -- CPU_ReadMem(4 bytes @ 0x40090024) - Data: AA AA AA AA  returns 0x01 (0000ms, 1171ms total)
T1658 002:361 JLINK_ReadMem (0x40090028, 0x0004 Bytes, ...) -- CPU_ReadMem(4 bytes @ 0x40090028) - Data: AA AA AA AA  returns 0x01 (0001ms, 1172ms total)
T1658 002:362 JLINK_ReadMem (0x4009002C, 0x0004 Bytes, ...) -- CPU_ReadMem(4 bytes @ 0x4009002C) - Data: AA AA AA AA  returns 0x01 (0001ms, 1173ms total)
T1658 002:363 JLINK_ReadMem (0x40090030, 0x0004 Bytes, ...) -- CPU_ReadMem(4 bytes @ 0x40090030) - Data: AA AA AA AA  returns 0x01 (0000ms, 1173ms total)
T1658 002:363 JLINK_ReadMem (0x40090034, 0x0004 Bytes, ...) -- CPU_ReadMem(4 bytes @ 0x40090034) - Data: AA AA AA AA  returns 0x01 (0001ms, 1174ms total)
T1658 002:364 JLINK_ReadMem (0x40090038, 0x0004 Bytes, ...) -- CPU_ReadMem(4 bytes @ 0x40090038) - Data: AA AA AA AA  returns 0x01 (0000ms, 1174ms total)
T1658 002:364 JLINK_ReadMem (0x4009003C, 0x0004 Bytes, ...) -- CPU_ReadMem(4 bytes @ 0x4009003C) - Data: AA AA AA AA  returns 0x01 (0001ms, 1175ms total)
T1658 002:365 JLINK_ReadMem (0x40090070, 0x0004 Bytes, ...) -- CPU_ReadMem(4 bytes @ 0x40090070) - Data: AA AA AA AA  returns 0x01 (0001ms, 1176ms total)
T1658 002:366 JLINK_ReadMem (0x40034000, 0x0004 Bytes, ...) -- CPU_ReadMem(4 bytes @ 0x40034000) - Data: AA AA AA AA  returns 0x01 (0000ms, 1176ms total)
T1658 002:366 JLINK_ReadMem (0x40034004, 0x0004 Bytes, ...) -- CPU_ReadMem(4 bytes @ 0x40034004) - Data: AA AA AA AA  returns 0x01 (0001ms, 1177ms total)
T1658 002:367 JLINK_ReadMem (0x40034010, 0x0004 Bytes, ...) -- CPU_ReadMem(4 bytes @ 0x40034010) - Data: AA AA AA AA  returns 0x01 (0000ms, 1177ms total)
T1658 002:367 JLINK_ReadMem (0x40034014, 0x0004 Bytes, ...) -- CPU_ReadMem(4 bytes @ 0x40034014) - Data: AA AA AA AA  returns 0x01 (0001ms, 1178ms total)
T1658 002:368 JLINK_ReadMem (0x40034018, 0x0004 Bytes, ...) -- CPU_ReadMem(4 bytes @ 0x40034018) - Data: AA AA AA AA  returns 0x01 (0001ms, 1179ms total)
T1658 002:369 JLINK_ReadMem (0x4003401C, 0x0004 Bytes, ...) -- CPU_ReadMem(4 bytes @ 0x4003401C) - Data: AA AA AA AA  returns 0x01 (0000ms, 1179ms total)
T1658 002:369 JLINK_ReadMem (0x40034020, 0x0004 Bytes, ...) -- CPU_ReadMem(4 bytes @ 0x40034020) - Data: AA AA AA AA  returns 0x01 (0001ms, 1180ms total)
T1658 002:370 JLINK_ReadMem (0x40034024, 0x0004 Bytes, ...) -- CPU_ReadMem(4 bytes @ 0x40034024) - Data: AA AA AA AA  returns 0x01 (0001ms, 1181ms total)
T1658 002:371 JLINK_ReadMem (0x40034028, 0x0004 Bytes, ...) -- CPU_ReadMem(4 bytes @ 0x40034028) - Data: AA AA AA AA  returns 0x01 (0001ms, 1182ms total)
T1658 002:372 JLINK_ReadMem (0x4003402C, 0x0004 Bytes, ...) -- CPU_ReadMem(4 bytes @ 0x4003402C) - Data: AA AA AA AA  returns 0x01 (0000ms, 1182ms total)
T1658 002:372 JLINK_ReadMem (0x40034030, 0x0004 Bytes, ...) -- CPU_ReadMem(4 bytes @ 0x40034030) - Data: AA AA AA AA  returns 0x01 (0001ms, 1183ms total)
T1658 002:373 JLINK_ReadMem (0x4003400C, 0x0004 Bytes, ...) -- CPU_ReadMem(4 bytes @ 0x4003400C) - Data: AA AA AA AA  returns 0x01 (0000ms, 1183ms total)
T1658 002:373 JLINK_ReadMem (0x400FC104, 0x0004 Bytes, ...) -- CPU_ReadMem(4 bytes @ 0x400FC104) - Data: 00 00 00 00  returns 0x00 (0001ms, 1184ms total)
T1658 002:374 JLINK_ReadMem (0x400FC088, 0x0004 Bytes, ...) -- CPU_ReadMem(4 bytes @ 0x400FC088) - Data: 00 00 00 00  returns 0x00 (0000ms, 1184ms total)
T1658 002:374 JLINK_ReadMem (0x400FC10C, 0x0004 Bytes, ...) -- CPU_ReadMem(4 bytes @ 0x400FC10C) - Data: 00 00 00 00  returns 0x00 (0001ms, 1185ms total)
T109C 002:724 JLINK_SetBPEx(Addr = 0x00002A9C, Type = 0xFFFFFFF2)  returns 0x00000001 (0000ms, 1185ms total)
T109C 002:724 JLINK_SetBPEx(Addr = 0x00002A84, Type = 0xFFFFFFF2)  returns 0x00000002 (0000ms, 1185ms total)
T109C 002:724 JLINK_SetBPEx(Addr = 0x00002A60, Type = 0xFFFFFFF2)  returns 0x00000003 (0000ms, 1185ms total)
T109C 002:724 JLINK_SetBPEx(Addr = 0x00002A52, Type = 0xFFFFFFF2)  returns 0x00000004 (0000ms, 1185ms total)
T109C 002:724 JLINK_Go() -- CPU_WriteMem(4 bytes @ 0xE0002000) -- CPU_WriteMem(4 bytes @ 0xE0002000) -- CPU_WriteMem(4 bytes @ 0xE0002000) -- CPU_WriteMem(4 bytes @ 0xE0002000) -- CPU_ReadMem(4 bytes @ 0xE0001000) -- CPU_WriteMem(4 bytes @ 0xE0002008) -- CPU_WriteMem(4 bytes @ 0xE000200C) -- CPU_WriteMem(4 bytes @ 0xE0002010) -- CPU_WriteMem(4 bytes @ 0xE0002014) -- CPU_WriteMem(4 bytes @ 0xE0002018) -- CPU_WriteMem(4 bytes @ 0xE000201C) -- CPU_WriteMem(4 bytes @ 0xE0001004) (0005ms, 1190ms total)
T109C 002:830 JLINK_IsHalted()  returns FALSE (0000ms, 1190ms total)
T109C 002:931 JLINK_IsHalted()  returns FALSE (0000ms, 1190ms total)
T109C 003:032 JLINK_IsHalted()  returns FALSE (0000ms, 1190ms total)
T109C 003:133 JLINK_IsHalted()  returns FALSE (0000ms, 1190ms total)
T109C 003:234 JLINK_ReadMemU32(0xE0001004, 0x0001 Items, ...) -- CPU is running -- CPU_ReadMem(4 bytes @ 0xE0001004) - Data: 18 C3 01 03  returns 0x01 (0000ms, 1190ms total)
T109C 003:234 JLINK_IsHalted()  returns FALSE (0001ms, 1191ms total)
T109C 003:336 JLINK_IsHalted()  returns FALSE (0000ms, 1190ms total)
T109C 003:437 JLINK_IsHalted()  returns FALSE (0000ms, 1190ms total)
T109C 003:538 JLINK_IsHalted()  returns FALSE (0000ms, 1190ms total)
T109C 003:639 JLINK_IsHalted()  returns FALSE (0000ms, 1190ms total)
T109C 003:740 JLINK_IsHalted()  returns FALSE (0000ms, 1190ms total)
T109C 003:842 JLINK_ReadMemU32(0xE0001004, 0x0001 Items, ...) -- CPU is running -- CPU_ReadMem(4 bytes @ 0xE0001004) - Data: 86 32 A1 06  returns 0x01 (0000ms, 1190ms total)
T109C 003:843 JLINK_IsHalted()  returns FALSE (0000ms, 1190ms total)
T109C 003:944 JLINK_IsHalted()  returns FALSE (0000ms, 1190ms total)
T109C 004:046 JLINK_IsHalted()  returns FALSE (0000ms, 1190ms total)
T109C 004:146 JLINK_IsHalted()  returns FALSE (0000ms, 1190ms total)
T109C 004:248 JLINK_IsHalted()  returns FALSE (0000ms, 1190ms total)
T109C 004:349 JLINK_IsHalted()  returns FALSE (0000ms, 1190ms total)
T109C 004:450 JLINK_ReadMemU32(0xE0001004, 0x0001 Items, ...) -- CPU is running -- CPU_ReadMem(4 bytes @ 0xE0001004) - Data: 70 53 41 0A  returns 0x01 (0000ms, 1190ms total)
T109C 004:451 JLINK_IsHalted()  returns FALSE (0000ms, 1190ms total)
T109C 004:552 JLINK_IsHalted()  returns FALSE (0000ms, 1190ms total)
T109C 004:653 JLINK_IsHalted()  returns FALSE (0000ms, 1190ms total)
T109C 004:754 JLINK_IsHalted()  returns FALSE (0000ms, 1190ms total)
T109C 004:856 JLINK_IsHalted()  returns FALSE (0000ms, 1190ms total)
T109C 004:957 JLINK_ReadMemU32(0xE0001004, 0x0001 Items, ...) -- CPU is running -- CPU_ReadMem(4 bytes @ 0xE0001004) - Data: C0 4F 47 0D  returns 0x01 (0000ms, 1190ms total)
T109C 004:957 JLINK_IsHalted()  returns FALSE (0001ms, 1191ms total)
T109C 005:059 JLINK_IsHalted()  returns TRUE (0002ms, 1192ms total)
T109C 005:061 JLINK_Halt()  returns 0x00 (0000ms, 1190ms total)
T109C 005:061 JLINK_IsHalted()  returns TRUE (0000ms, 1190ms total)
T109C 005:061 JLINK_IsHalted()  returns TRUE (0000ms, 1190ms total)
T109C 005:061 JLINK_IsHalted()  returns TRUE (0001ms, 1191ms total)
T109C 005:062 JLINK_ReadReg(R15 (PC))  returns 0x00002A52 (0000ms, 1190ms total)
T109C 005:062 JLINK_ReadReg(XPSR)  returns 0x01000026 (0000ms, 1190ms total)
T109C 005:062 JLINK_ClrBPEx(BPHandle = 0x00000001)  returns 0x00 (0000ms, 1190ms total)
T109C 005:062 JLINK_ClrBPEx(BPHandle = 0x00000002)  returns 0x00 (0000ms, 1190ms total)
T109C 005:062 JLINK_ClrBPEx(BPHandle = 0x00000003)  returns 0x00 (0000ms, 1190ms total)
T109C 005:062 JLINK_ClrBPEx(BPHandle = 0x00000004)  returns 0x00 (0000ms, 1190ms total)
T109C 005:062 JLINK_ReadMemU32(0xE000ED30, 0x0001 Items, ...) -- CPU_ReadMem(4 bytes @ 0xE000ED30) - Data: 03 00 00 00  returns 0x01 (0001ms, 1191ms total)
T109C 005:063 JLINK_ReadMemU32(0xE0001028, 0x0001 Items, ...) -- CPU_ReadMem(4 bytes @ 0xE0001028) - Data: 00 00 00 00  returns 0x01 (0000ms, 1191ms total)
T109C 005:063 JLINK_ReadMemU32(0xE0001038, 0x0001 Items, ...) -- CPU_ReadMem(4 bytes @ 0xE0001038) - Data: 00 02 00 00  returns 0x01 (0001ms, 1192ms total)
T109C 005:064 JLINK_ReadMemU32(0xE0001048, 0x0001 Items, ...) -- CPU_ReadMem(4 bytes @ 0xE0001048) - Data: 00 00 00 00  returns 0x01 (0001ms, 1193ms total)
T109C 005:065 JLINK_ReadMemU32(0xE0001058, 0x0001 Items, ...) -- CPU_ReadMem(4 bytes @ 0xE0001058) - Data: 00 00 00 01  returns 0x01 (0000ms, 1193ms total)
T109C 005:066 JLINK_ReadReg(R0)  returns 0x00200002 (0000ms, 1193ms total)
T109C 005:066 JLINK_ReadReg(R1)  returns 0x40034000 (0000ms, 1193ms total)
T109C 005:066 JLINK_ReadReg(R2)  returns 0x00C80000 (0000ms, 1193ms total)
T109C 005:066 JLINK_ReadReg(R3)  returns 0x00F40000 (0000ms, 1193ms total)
T109C 005:066 JLINK_ReadReg(R4)  returns 0x00000090 (0000ms, 1193ms total)
T109C 005:066 JLINK_ReadReg(R5)  returns 0x00000000 (0000ms, 1193ms total)
T109C 005:066 JLINK_ReadReg(R6)  returns 0x12345678 (0000ms, 1193ms total)
T109C 005:066 JLINK_ReadReg(R7)  returns 0x00000000 (0000ms, 1193ms total)
T109C 005:066 JLINK_ReadReg(R8)  returns 0x00000000 (0000ms, 1193ms total)
T109C 005:066 JLINK_ReadReg(R9)  returns 0x100001DC (0000ms, 1193ms total)
T109C 005:066 JLINK_ReadReg(R10)  returns 0x00000000 (0000ms, 1193ms total)
T109C 005:066 JLINK_ReadReg(R11)  returns 0x00000000 (0000ms, 1193ms total)
T109C 005:066 JLINK_ReadReg(R12)  returns 0x2009C000 (0000ms, 1193ms total)
T109C 005:067 JLINK_ReadReg(R13 (SP))  returns 0x100060B0 (0000ms, 1194ms total)
T109C 005:067 JLINK_ReadReg(R14)  returns 0xFFFFFFF9 (0000ms, 1194ms total)
T109C 005:067 JLINK_ReadReg(R15 (PC))  returns 0x00002A52 (0000ms, 1194ms total)
T109C 005:067 JLINK_ReadReg(XPSR)  returns 0x01000026 (0000ms, 1194ms total)
T109C 005:067 JLINK_ReadReg(MSP)  returns 0x100060B0 (0000ms, 1194ms total)
T109C 005:067 JLINK_ReadReg(PSP)  returns 0x10000800 (0000ms, 1194ms total)
T109C 005:067 JLINK_ReadReg(CFBP)  returns 0x00000000 (0000ms, 1194ms total)
T1658 005:068 JLINK_ReadMem (0x100060C4, 0x0004 Bytes, ...) -- CPU_ReadMem(64 bytes @ 0x100060C0) -- Updating C cache (64 bytes @ 0x100060C0) -- Read from C cache (4 bytes @ 0x100060C4) - Data: F9 FF FF FF  returns 0x00 (0001ms, 1195ms total)
T1658 005:069 JLINK_ReadMem (0x100060E0, 0x0004 Bytes, ...) -- Read from C cache (4 bytes @ 0x100060E0) - Data: 9E 4C 01 00  returns 0x00 (0000ms, 1195ms total)
T1658 005:069 JLINK_ReadMem (0x100060E4, 0x0004 Bytes, ...) -- Read from C cache (4 bytes @ 0x100060E4) - Data: 00 00 00 01  returns 0x00 (0000ms, 1195ms total)
T1658 005:069 JLINK_ReadMem (0x100060DC, 0x0004 Bytes, ...) -- Read from C cache (4 bytes @ 0x100060DC) - Data: 35 06 00 00  returns 0x00 (0000ms, 1195ms total)
T1658 005:069 JLINK_ReadMem (0xE000ED28, 0x0004 Bytes, ...) -- CPU_ReadMem(4 bytes @ 0xE000ED28) - Data: 00 00 00 00  returns 0x00 (0001ms, 1196ms total)
T1658 005:070 JLINK_ReadMem (0x100060D8, 0x0004 Bytes, ...) -- Read from C cache (4 bytes @ 0x100060D8) - Data: 00 C0 09 20  returns 0x00 (0000ms, 1196ms total)
T1658 005:070 JLINK_ReadMem (0x100060E8, 0x0004 Bytes, ...) -- Read from C cache (4 bytes @ 0x100060E8) - Data: 00 22 00 00  returns 0x00 (0000ms, 1196ms total)
T1658 005:070 JLINK_ReadMem (0x100060EC, 0x0004 Bytes, ...) -- Read from C cache (4 bytes @ 0x100060EC) - Data: 00 00 48 42  returns 0x00 (0000ms, 1196ms total)
T1658 005:089 JLINK_ReadMem (0x400FC0C0, 0x0004 Bytes, ...) -- CPU_ReadMem(4 bytes @ 0x400FC0C0) - Data: 00 00 00 00  returns 0x00 (0001ms, 1197ms total)
T1658 005:090 JLINK_ReadMem (0x400FC0C4, 0x0004 Bytes, ...) -- CPU_ReadMem(4 bytes @ 0x400FC0C4) - Data: DE 97 28 44  returns 0x00 (0000ms, 1197ms total)
T1658 005:091 JLINK_ReadMem (0x4002C000, 0x0004 Bytes, ...) -- CPU_ReadMem(4 bytes @ 0x4002C000) - Data: 00 00 00 00  returns 0x00 (0000ms, 1197ms total)
T1658 005:091 JLINK_ReadMem (0x4002C004, 0x0004 Bytes, ...) -- CPU_ReadMem(4 bytes @ 0x4002C004) - Data: 00 00 01 00  returns 0x00 (0001ms, 1198ms total)
T1658 005:092 JLINK_ReadMem (0x4002C008, 0x0004 Bytes, ...) -- CPU_ReadMem(4 bytes @ 0x4002C008) - Data: 05 01 15 50  returns 0x00 (0001ms, 1199ms total)
T1658 005:093 JLINK_ReadMem (0x4002C00C, 0x0004 Bytes, ...) -- CPU_ReadMem(4 bytes @ 0x4002C00C) - Data: 05 00 00 00  returns 0x00 (0000ms, 1199ms total)
T1658 005:093 JLINK_ReadMem (0x4002C010, 0x0004 Bytes, ...) -- CPU_ReadMem(4 bytes @ 0x4002C010) - Data: 00 00 00 00  returns 0x00 (0001ms, 1200ms total)
T1658 005:094 JLINK_ReadMem (0x4002C014, 0x0004 Bytes, ...) -- CPU_ReadMem(4 bytes @ 0x4002C014) - Data: 00 00 00 00  returns 0x00 (0001ms, 1201ms total)
